T0FFC 3906:615 SEGGER J-Link V6.32i Log File (0000ms, 1602ms total)
T0FFC 3906:615 DLL Compiled: Jul 24 2018 15:19:55 (0000ms, 1602ms total)
T0FFC 3906:615 Logging started @ 2020-09-22 09:57 (0000ms, 1602ms total)
T0FFC 3906:615 JLINK_SetWarnOutHandler(...) (0000ms, 1602ms total)
T0FFC 3906:615 JLINK_OpenEx(...)
Firmware: J-Link V9 compiled Dec 30 2018 15:35:20
Hardware: V9.20
S/N: 269200585
Feature(s): GDB, RDI, FlashBP, FlashDL, JFlash, RDDI
TELNET listener socket opened on port 19021Device "STM32F072CB" selected.WEBSRV 
Starting webserver (0025ms, 1627ms total)
T0FFC 3906:615 WEBSRV Webserver running on local port 19080 (0025ms, 1627ms total)
T0FFC 3906:615   returns O.K. (0025ms, 1627ms total)
T0FFC 3906:640 JLINK_GetEmuCaps()  returns 0xB9FF7BBF (0000ms, 1627ms total)
T0FFC 3906:641 JLINK_TIF_GetAvailable(...) (0000ms, 1627ms total)
T0FFC 3906:641 JLINK_SetErrorOutHandler(...) (0000ms, 1627ms total)
T0FFC 3906:641 JLINK_ExecCommand("ProjectFile = "E:\Working_Directory\My_Files\Project\Xinxiang_or_Hangtian_Cap_Sensor_HSI_Version_1_1_0\MDK-ARM\JLinkSettings.ini"", ...). Device "STM32F072CB" selected.  returns 0x00 (0008ms, 1635ms total)
T0FFC 3906:649 JLINK_ExecCommand("Device = STM32F072C8Tx", ...). Device "STM32F072CB" selected.  returns 0x00 (0004ms, 1639ms total)
T0FFC 3906:653 JLINK_ExecCommand("DisableConnectionTimeout", ...).   returns 0x01 (0000ms, 1639ms total)
T0FFC 3906:653 JLINK_GetHardwareVersion()  returns 0x16760 (0000ms, 1639ms total)
T0FFC 3906:653 JLINK_GetDLLVersion()  returns 63209 (0000ms, 1639ms total)
T0FFC 3906:653 JLINK_GetFirmwareString(...) (0000ms, 1639ms total)
T0FFC 3906:653 JLINK_GetDLLVersion()  returns 63209 (0000ms, 1639ms total)
T0FFC 3906:653 JLINK_GetCompileDateTime() (0000ms, 1639ms total)
T0FFC 3906:653 JLINK_GetFirmwareString(...) (0000ms, 1639ms total)
T0FFC 3906:653 JLINK_GetHardwareVersion()  returns 0x16760 (0000ms, 1639ms total)
T0FFC 3906:653 JLINK_TIF_Select(JLINKARM_TIF_SWD)  returns 0x00 (0001ms, 1640ms total)
T0FFC 3906:654 JLINK_SetSpeed(10000) (0000ms, 1640ms total)
T0FFC 3906:654 JLINK_GetId() >0x10B TIF>Found SW-DP with ID 0x0BB11477 >0x0D TIF> >0x28 TIF> >0x0D TIF> >0x28 TIF> >0x0D TIF> >0x28 TIF> >0x0D TIF> >0x28 TIF> >0x0D TIF> >0x21 TIF> >0x0D TIF> >0x28 TIF> >0x0D TIF> >0x28 TIF> >0x0D TIF> >0x28 TIF> >0x0D TIF> >0x21 TIF> >0x0D TIF> >0x21 TIF> >0x0D TIF> >0x28 TIF> >0x0D TIF> >0x21 TIF> >0x0D TIF> >0x21 TIF> >0x0D TIF> >0x28 TIF> >0x0D TIF> >0x21 TIF> >0x0D TIF> >0x21 TIF> >0x0D TIF> >0x28 TIF> >0x0D TIF> >0x28 TIF> >0x0D TIF> >0x28 TIF> >0x0D TIF>
 >0x21 TIF> >0x0D TIF> >0x21 TIF> >0x0D TIF> >0x28 TIF> >0x0D TIF> >0x28 TIF> >0x0D TIF> >0x28 TIF> >0x0D TIF> >0x21 TIF> >0x0D TIF> >0x21 TIF> >0x0D TIF> >0x28 TIF> >0x0D TIF> >0x21 TIF> >0x0D TIF> >0x21 TIF> >0x0D TIF> >0x28 TIF> >0x0D TIF> >0x21 TIF> >0x0D TIF> >0x21 TIF> >0x0D TIF> >0x28 TIF> >0x0D TIF> >0x21 TIF> >0x0D TIF> >0x21 TIF> >0x0D TIF> >0x28 TIF> >0x0D TIF> >0x21 TIF> >0x0D TIF> >0x21 TIF> >0x0D TIF> >0x28 TIF> >0x0D TIF> >0x21 TIF> >0x0D TIF> >0x21 TIF> >0x10B TIF>
Found SW-DP with ID 0x0BB11477 >0x0D TIF> >0x28 TIF> >0x0D TIF> >0x28 TIF> >0x0D TIF> >0x28 TIF> >0x0D TIF> >0x28 TIF> >0x0D TIF> >0x21 TIF> >0x0D TIF> >0x28 TIF>Scanning AP map to find all available APs >0x0D TIF> >0x28 TIF> >0x0D TIF> >0x21 TIF> >0x0D TIF> >0x21 TIF> >0x0D TIF> >0x28 TIF> >0x0D TIF> >0x21 TIF> >0x0D TIF> >0x21 TIF>AP[1]: Stopped AP scan as end of AP map has been reachedAP[0]: AHB-AP (IDR: 0x04770021)Iterating through AP map to find AHB-AP to use >0x42 TIF> >0x28 TIF> >0x0D TIF>
 >0x28 TIF> >0x0D TIF> >0x21 TIF> >0x0D TIF> >0x21 TIF> >0x42 TIF> >0x28 TIF> >0x0D TIF> >0x28 TIF> >0x0D TIF> >0x28 TIF> >0x0D TIF> >0x21 TIF> >0x0D TIF> >0x21 TIF>AP[0]: Core foundAP[0]: AHB-AP ROM base: 0xE00FF000 >0x0D TIF> >0x28 TIF> >0x0D TIF> >0x28 TIF> >0x0D TIF> >0x28 TIF> >0x0D TIF> >0x21 TIF> >0x0D TIF> >0x21 TIF>CPUID register: 0x410CC200. Implementer code: 0x41 (ARM)Found Cortex-M0 r0p0, Little endian. -- Max. mem block: 0x00011010 -- CPU_ReadMem(4 bytes @ 0xE000EDF0)
 -- CPU_WriteMem(4 bytes @ 0xE000EDF0) -- CPU_ReadMem(4 bytes @ 0xE0002000)FPUnit: 4 code (BP) slots and 0 literal slots -- CPU_ReadMem(4 bytes @ 0xE000EDFC) -- CPU_WriteMem(4 bytes @ 0xE000EDFC) -- CPU_ReadMem(4 bytes @ 0xE0001000) -- CPU_WriteMem(4 bytes @ 0xE0001000)CoreSight components:ROMTbl[0] @ E00FF000 -- CPU_ReadMem(16 bytes @ 0xE00FF000) -- CPU_ReadMem(16 bytes @ 0xE000EFF0) -- CPU_ReadMem(16 bytes @ 0xE000EFE0)ROMTbl[0][0]: E000E000, CID: B105E00D, PID: 000BB008 SCS
 -- CPU_ReadMem(16 bytes @ 0xE0001FF0) -- CPU_ReadMem(16 bytes @ 0xE0001FE0)ROMTbl[0][1]: E0001000, CID: B105E00D, PID: 000BB00A DWT -- CPU_ReadMem(16 bytes @ 0xE0002FF0) -- CPU_ReadMem(16 bytes @ 0xE0002FE0)ROMTbl[0][2]: E0002000, CID: B105E00D, PID: 000BB00B FPB >0x0D TIF> >0x21 TIF>  returns 0x0BB11477 (0132ms, 1772ms total)
T0FFC 3906:786 JLINK_GetDLLVersion()  returns 63209 (0000ms, 1772ms total)
T0FFC 3906:786 JLINK_CORE_GetFound()  returns 0x60000FF (0000ms, 1772ms total)
T0FFC 3906:786 JLINK_GetDebugInfo(0x100 = JLINKARM_ROM_TABLE_ADDR_INDEX) -- Value=0xE00FF000  returns 0x00 (0000ms, 1772ms total)
T0FFC 3906:787 JLINK_GetDebugInfo(0x100 = JLINKARM_ROM_TABLE_ADDR_INDEX) -- Value=0xE00FF000  returns 0x00 (0000ms, 1772ms total)
T0FFC 3906:787 JLINK_GetDebugInfo(0x101 = JLINKARM_DEBUG_INFO_ETM_ADDR_INDEX) -- Value=0x00000000  returns 0x00 (0000ms, 1772ms total)
T0FFC 3906:787 JLINK_ReadMemEx(0xE0041FF0, 0x0010 Bytes, ..., Flags = 0x02000004) -- CPU_ReadMem(16 bytes @ 0xE0041FF0) - Data: 00 00 00 00 00 00 00 00 00 00 00 00 00 00 00 00  returns 0x10 (0000ms, 1772ms total)
T0FFC 3906:787 JLINK_GetDebugInfo(0x102 = JLINKARM_DEBUG_INFO_MTB_ADDR_INDEX) -- Value=0x00000000  returns 0x00 (0000ms, 1772ms total)
T0FFC 3906:787 JLINK_GetDebugInfo(0x103 = JLINKARM_DEBUG_INFO_TPIU_ADDR_INDEX) -- Value=0x00000000  returns 0x00 (0000ms, 1772ms total)
T0FFC 3906:787 JLINK_ReadMemEx(0xE0040FF0, 0x0010 Bytes, ..., Flags = 0x02000004) -- CPU_ReadMem(16 bytes @ 0xE0040FF0) - Data: 00 00 00 00 00 00 00 00 00 00 00 00 00 00 00 00  returns 0x10 (0000ms, 1772ms total)
T0FFC 3906:787 JLINK_GetDebugInfo(0x104 = JLINKARM_DEBUG_INFO_ITM_ADDR_INDEX) -- Value=0xE0000000  returns 0x00 (0000ms, 1772ms total)
T0FFC 3906:787 JLINK_GetDebugInfo(0x105 = JLINKARM_DEBUG_INFO_DWT_ADDR_INDEX) -- Value=0xE0001000  returns 0x00 (0000ms, 1772ms total)
T0FFC 3906:787 JLINK_GetDebugInfo(0x106 = JLINKARM_DEBUG_INFO_FPB_ADDR_INDEX) -- Value=0xE0002000  returns 0x00 (0000ms, 1772ms total)
T0FFC 3906:787 JLINK_GetDebugInfo(0x107 = JLINKARM_DEBUG_INFO_NVIC_ADDR_INDEX) -- Value=0xE000E000  returns 0x00 (0000ms, 1772ms total)
T0FFC 3906:787 JLINK_GetDebugInfo(0x10C = JLINKARM_DEBUG_INFO_DBG_ADDR_INDEX) -- Value=0xE000EDF0  returns 0x00 (0000ms, 1772ms total)
T0FFC 3906:787 JLINK_GetDebugInfo(0x01 = Unknown) -- Value=0x00000000  returns 0x00 (0001ms, 1773ms total)
T0FFC 3906:788 JLINK_ReadMemU32(0xE000ED00, 0x0001 Items, ...) -- CPU_ReadMem(4 bytes @ 0xE000ED00) - Data: 00 C2 0C 41  returns 0x01 (0000ms, 1773ms total)
T0FFC 3906:788 JLINK_GetDebugInfo(0x10F = JLINKARM_DEBUG_INFO_HAS_CORTEX_M_SECURITY_EXT_INDEX) -- Value=0x00000000  returns 0x00 (0000ms, 1773ms total)
T0FFC 3906:788 JLINK_SetResetType(JLINKARM_CM3_RESET_TYPE_NORMAL)  returns JLINKARM_CM3_RESET_TYPE_NORMAL (0000ms, 1773ms total)
T0FFC 3906:788 JLINK_Reset() -- CPU is running -- CPU_WriteMem(4 bytes @ 0xE000EDF0) -- CPU is running -- CPU_WriteMem(4 bytes @ 0xE000EDFC)Reset: Halt core after reset via DEMCR.VC_CORERESET. >0x35 TIF>Reset: Reset device via AIRCR.SYSRESETREQ. -- CPU is running -- CPU_WriteMem(4 bytes @ 0xE000ED0C) >0x0D TIF> >0x28 TIF> -- CPU_ReadMem(4 bytes @ 0xE000EDF0) -- CPU_ReadMem(4 bytes @ 0xE000EDF0) -- CPU is running -- CPU_WriteMem(4 bytes @ 0xE000EDF0) -- CPU is running -- CPU_WriteMem(4 bytes @ 0xE000EDFC)
 -- CPU_ReadMem(4 bytes @ 0xE000EDF0) -- CPU_WriteMem(4 bytes @ 0xE0002000) -- CPU_ReadMem(4 bytes @ 0xE000EDFC) -- CPU_ReadMem(4 bytes @ 0xE0001000) -- CPU_WriteMem(4 bytes @ 0xE0001000) (0063ms, 1836ms total)
T0FFC 3906:851 JLINK_ReadReg(R15 (PC))  returns 0x080000D4 (0000ms, 1836ms total)
T0FFC 3906:851 JLINK_ReadReg(XPSR)  returns 0xC1000000 (0000ms, 1836ms total)
T0FFC 3906:851 JLINK_Halt()  returns 0x00 (0000ms, 1836ms total)
T0FFC 3906:851 JLINK_ReadMemU32(0xE000EDF0, 0x0001 Items, ...) -- CPU_ReadMem(4 bytes @ 0xE000EDF0) - Data: 03 00 03 00  returns 0x01 (0000ms, 1836ms total)
T0FFC 3906:851 JLINK_WriteU32(0xE000EDF0, 0xA05F0003) -- CPU_WriteMem(4 bytes @ 0xE000EDF0)  returns 0x00 (0000ms, 1836ms total)
T0FFC 3906:851 JLINK_WriteU32(0xE000EDFC, 0x01000000) -- CPU_WriteMem(4 bytes @ 0xE000EDFC)  returns 0x00 (0001ms, 1837ms total)
T0FFC 3906:852 JLINK_GetHWStatus(...)  returns 0x00 (0000ms, 1837ms total)
T0FFC 3906:852 JLINK_GetNumBPUnits(Type = 0xFFFFFF00)  returns 0x04 (0000ms, 1837ms total)
T0FFC 3906:852 JLINK_GetNumBPUnits(Type = 0xF0)  returns 0x2000 (0000ms, 1837ms total)
T0FFC 3906:852 JLINK_GetNumWPUnits()  returns 0x02 (0000ms, 1837ms total)
T0FFC 3906:852 JLINK_GetSpeed()  returns 0x1770 (0000ms, 1837ms total)
T0FFC 3906:852 JLINK_ReadMemU32(0xE000E004, 0x0001 Items, ...) -- CPU_ReadMem(4 bytes @ 0xE000E004) - Data: 00 00 00 00  returns 0x01 (0000ms, 1837ms total)
T0FFC 3906:852 JLINK_ReadReg(R15 (PC))  returns 0x080000D4 (0000ms, 1837ms total)
T0FFC 3906:852 JLINK_ReadReg(XPSR)  returns 0xC1000000 (0000ms, 1837ms total)
T0FFC 3906:939 JLINK_SetResetType(JLINKARM_CM3_RESET_TYPE_NORMAL)  returns JLINKARM_CM3_RESET_TYPE_NORMAL (0000ms, 1837ms total)
T0FFC 3906:939 JLINK_Reset() -- CPU_WriteMem(4 bytes @ 0xE000EDF0) -- CPU_WriteMem(4 bytes @ 0xE000EDFC)Reset: Halt core after reset via DEMCR.VC_CORERESET. >0x35 TIF>Reset: Reset device via AIRCR.SYSRESETREQ. -- CPU_WriteMem(4 bytes @ 0xE000ED0C) >0x0D TIF> >0x28 TIF> -- CPU_ReadMem(4 bytes @ 0xE000EDF0) -- CPU_ReadMem(4 bytes @ 0xE000EDF0) -- CPU_WriteMem(4 bytes @ 0xE000EDF0) -- CPU_WriteMem(4 bytes @ 0xE000EDFC) -- CPU_ReadMem(4 bytes @ 0xE000EDF0) -- CPU_WriteMem(4 bytes @ 0xE0002000)
 -- CPU_ReadMem(4 bytes @ 0xE000EDFC) -- CPU_ReadMem(4 bytes @ 0xE0001000) -- CPU_WriteMem(4 bytes @ 0xE0001000) (0065ms, 1902ms total)
T0FFC 3907:004 JLINK_ReadReg(R15 (PC))  returns 0x080000D4 (0000ms, 1902ms total)
T0FFC 3907:004 JLINK_ReadReg(XPSR)  returns 0xC1000000 (0000ms, 1902ms total)
T0FFC 3907:004 JLINK_ReadMemEx(0x080000D4, 0x003C Bytes, ..., Flags = 0x02000000) -- CPU_ReadMem(128 bytes @ 0x080000C0) -- Updating C cache (128 bytes @ 0x080000C0) -- Read from C cache (60 bytes @ 0x080000D4) - Data: 04 48 80 47 04 48 00 47 FE E7 FE E7 FE E7 FE E7 ...  returns 0x3C (0001ms, 1903ms total)
T0FFC 3907:062 JLINK_ReadMemEx(0x40000400, 0x0010 Bytes, ..., Flags = 0x02000004) -- CPU_ReadMem(16 bytes @ 0x40000400) - Data: 00 00 00 00 00 00 00 00 00 00 00 00 00 00 00 00  returns 0x10 (0001ms, 1904ms total)
T0FFC 3907:063 JLINK_ReadMemEx(0x40000410, 0x0004 Bytes, ..., Flags = 0x02000004) -- CPU_ReadMem(4 bytes @ 0x40000410) - Data: 00 00 00 00  returns 0x04 (0000ms, 1904ms total)
T0FFC 3907:063 JLINK_ReadMemEx(0x40000418, 0x0014 Bytes, ..., Flags = 0x02000004) -- CPU_ReadMem(20 bytes @ 0x40000418) - Data: 00 00 00 00 00 00 00 00 00 00 00 00 00 00 00 00 ...  returns 0x14 (0001ms, 1905ms total)
T0FFC 3907:064 JLINK_ReadMemEx(0x4000042C, 0x0004 Bytes, ..., Flags = 0x02000004) -- CPU_ReadMem(4 bytes @ 0x4000042C) - Data: 00 00 00 00  returns 0x04 (0000ms, 1905ms total)
T0FFC 3907:064 JLINK_ReadMemEx(0x40000434, 0x000C Bytes, ..., Flags = 0x02000004) -- CPU_ReadMem(12 bytes @ 0x40000434) - Data: 00 00 00 00 00 00 00 00 00 00 00 00  returns 0x0C (0000ms, 1905ms total)
T0FFC 3907:064 JLINK_ReadMemEx(0x40000440, 0x0004 Bytes, ..., Flags = 0x02000004) -- CPU_ReadMem(4 bytes @ 0x40000440) - Data: 00 00 00 00  returns 0x04 (0001ms, 1906ms total)
T0FFC 3907:065 JLINK_ReadMemEx(0x40000448, 0x0004 Bytes, ..., Flags = 0x02000004) -- CPU_ReadMem(4 bytes @ 0x40000448) - Data: 00 00 00 00  returns 0x04 (0000ms, 1906ms total)
T0FFC 3907:065 JLINK_ReadMemEx(0x4000044C, 0x0004 Bytes, ..., Flags = 0x02000004) -- CPU_ReadMem(4 bytes @ 0x4000044C) - Data: 00 00 00 00  returns 0x04 (0000ms, 1906ms total)
T0FFC 3908:799 JLINK_ReadReg(R0)  returns 0xFFFFFFFF (0000ms, 1906ms total)
T0FFC 3908:799 JLINK_ReadReg(R1)  returns 0xFFFFFFFF (0000ms, 1906ms total)
T0FFC 3908:799 JLINK_ReadReg(R2)  returns 0xFFFFFFFF (0000ms, 1906ms total)
T0FFC 3908:799 JLINK_ReadReg(R3)  returns 0xFFFFFFFF (0000ms, 1906ms total)
T0FFC 3908:799 JLINK_ReadReg(R4)  returns 0xFFFFFFFF (0000ms, 1906ms total)
T0FFC 3908:799 JLINK_ReadReg(R5)  returns 0xFFFFFFFF (0000ms, 1906ms total)
T0FFC 3908:799 JLINK_ReadReg(R6)  returns 0xFFFFFFFF (0000ms, 1906ms total)
T0FFC 3908:799 JLINK_ReadReg(R7)  returns 0xFFFFFFFF (0000ms, 1906ms total)
T0FFC 3908:799 JLINK_ReadReg(R8)  returns 0xFFFFFFFF (0000ms, 1906ms total)
T0FFC 3908:799 JLINK_ReadReg(R9)  returns 0xFFFFFFFF (0000ms, 1906ms total)
T0FFC 3908:799 JLINK_ReadReg(R10)  returns 0xFFFFFFFF (0000ms, 1906ms total)
T0FFC 3908:799 JLINK_ReadReg(R11)  returns 0xFFFFFFFF (0000ms, 1906ms total)
T0FFC 3908:799 JLINK_ReadReg(R12)  returns 0xFFFFFFFF (0000ms, 1906ms total)
T0FFC 3908:799 JLINK_ReadReg(R13 (SP))  returns 0x200012D0 (0000ms, 1906ms total)
T0FFC 3908:799 JLINK_ReadReg(R14)  returns 0xFFFFFFFF (0000ms, 1906ms total)
T0FFC 3908:799 JLINK_ReadReg(R15 (PC))  returns 0x080000D4 (0000ms, 1906ms total)
T0FFC 3908:799 JLINK_ReadReg(XPSR)  returns 0xC1000000 (0000ms, 1906ms total)
T0FFC 3908:799 JLINK_ReadReg(MSP)  returns 0x200012D0 (0001ms, 1907ms total)
T0FFC 3908:800 JLINK_ReadReg(PSP)  returns 0xFFFFFFFC (0000ms, 1907ms total)
T0FFC 3908:800 JLINK_ReadReg(CFBP)  returns 0x00000000 (0000ms, 1907ms total)
T3350 3908:847 JLINK_ReadMemEx(0x080000D4, 0x0002 Bytes, ..., Flags = 0x02000000) -- Read from C cache (2 bytes @ 0x080000D4) - Data: 04 48  returns 0x02 (0000ms, 1907ms total)
T3350 3908:847 JLINK_SetBPEx(Addr = 0x0800968C, Type = 0xFFFFFFF2)  returns 0x00000001 (0000ms, 1907ms total)
T3350 3908:847 JLINK_Go() -- CPU_WriteMem(4 bytes @ 0xE0002000) -- CPU_ReadMem(4 bytes @ 0xE0001000) -- CPU_WriteMem(4 bytes @ 0xE0001000) -- CPU_WriteMem(4 bytes @ 0xE0002008) -- CPU_WriteMem(4 bytes @ 0xE000200C) -- CPU_WriteMem(4 bytes @ 0xE0002010) -- CPU_WriteMem(4 bytes @ 0xE0002014) -- CPU_WriteMem(4 bytes @ 0xE0001004) (0002ms, 1909ms total)
T3350 3908:951 JLINK_IsHalted()  returns FALSE (0000ms, 1909ms total)
T3350 3909:052 JLINK_IsHalted()  returns FALSE (0000ms, 1909ms total)
T3350 3909:153 JLINK_IsHalted()  returns FALSE (0000ms, 1909ms total)
T3350 3909:254 JLINK_IsHalted()  returns FALSE (0000ms, 1909ms total)
T3350 3909:354 JLINK_IsHalted()  returns FALSE (0000ms, 1909ms total)
T0FFC 3909:459 JLINK_ReadMemEx(0x40000400, 0x0010 Bytes, ..., Flags = 0x02000004) -- CPU_ReadMem(16 bytes @ 0x40000400) - Data: 00 00 00 00 00 00 00 00 00 00 00 00 00 00 00 00  returns 0x10 (0000ms, 1909ms total)
T0FFC 3909:459 JLINK_ReadMemEx(0x40000410, 0x0004 Bytes, ..., Flags = 0x02000004) -- CPU_ReadMem(4 bytes @ 0x40000410) - Data: 00 00 00 00  returns 0x04 (0001ms, 1910ms total)
T0FFC 3909:460 JLINK_ReadMemEx(0x40000418, 0x0014 Bytes, ..., Flags = 0x02000004) -- CPU_ReadMem(20 bytes @ 0x40000418) - Data: 00 00 00 00 00 00 00 00 00 00 00 00 00 00 00 00 ...  returns 0x14 (0000ms, 1910ms total)
T0FFC 3909:460 JLINK_ReadMemEx(0x4000042C, 0x0004 Bytes, ..., Flags = 0x02000004) -- CPU_ReadMem(4 bytes @ 0x4000042C) - Data: 00 00 00 00  returns 0x04 (0001ms, 1911ms total)
T0FFC 3909:461 JLINK_ReadMemEx(0x40000434, 0x000C Bytes, ..., Flags = 0x02000004) -- CPU_ReadMem(12 bytes @ 0x40000434) - Data: 00 00 00 00 00 00 00 00 00 00 00 00  returns 0x0C (0001ms, 1912ms total)
T0FFC 3909:462 JLINK_ReadMemEx(0x40000440, 0x0004 Bytes, ..., Flags = 0x02000004) -- CPU_ReadMem(4 bytes @ 0x40000440) - Data: 00 00 00 00  returns 0x04 (0000ms, 1912ms total)
T0FFC 3909:462 JLINK_ReadMemEx(0x40000448, 0x0004 Bytes, ..., Flags = 0x02000004) -- CPU_ReadMem(4 bytes @ 0x40000448) - Data: 00 00 00 00  returns 0x04 (0000ms, 1912ms total)
T0FFC 3909:462 JLINK_ReadMemEx(0x4000044C, 0x0004 Bytes, ..., Flags = 0x02000004) -- CPU_ReadMem(4 bytes @ 0x4000044C) - Data: 00 00 00 00  returns 0x04 (0001ms, 1913ms total)
T3350 3909:463 JLINK_IsHalted()  returns FALSE (0000ms, 1913ms total)
T3350 3909:564 JLINK_IsHalted()  returns FALSE (0000ms, 1913ms total)
T3350 3909:665 JLINK_IsHalted()  returns FALSE (0000ms, 1913ms total)
T3350 3909:766 JLINK_IsHalted()  returns FALSE (0000ms, 1913ms total)
T3350 3909:867 JLINK_IsHalted()  returns FALSE (0000ms, 1913ms total)
T0FFC 3909:978 JLINK_ReadMemEx(0x40000400, 0x0010 Bytes, ..., Flags = 0x02000004) -- CPU_ReadMem(16 bytes @ 0x40000400) - Data: 00 00 00 00 00 00 00 00 00 00 00 00 00 00 00 00  returns 0x10 (0000ms, 1913ms total)
T0FFC 3909:978 JLINK_ReadMemEx(0x40000410, 0x0004 Bytes, ..., Flags = 0x02000004) -- CPU_ReadMem(4 bytes @ 0x40000410) - Data: 00 00 00 00  returns 0x04 (0001ms, 1914ms total)
T0FFC 3909:979 JLINK_ReadMemEx(0x40000418, 0x0014 Bytes, ..., Flags = 0x02000004) -- CPU_ReadMem(20 bytes @ 0x40000418) - Data: 00 00 00 00 00 00 00 00 00 00 00 00 00 00 00 00 ...  returns 0x14 (0000ms, 1914ms total)
T0FFC 3909:979 JLINK_ReadMemEx(0x4000042C, 0x0004 Bytes, ..., Flags = 0x02000004) -- CPU_ReadMem(4 bytes @ 0x4000042C) - Data: 00 00 00 00  returns 0x04 (0001ms, 1915ms total)
T0FFC 3909:980 JLINK_ReadMemEx(0x40000434, 0x000C Bytes, ..., Flags = 0x02000004) -- CPU_ReadMem(12 bytes @ 0x40000434) - Data: 00 00 00 00 00 00 00 00 00 00 00 00  returns 0x0C (0000ms, 1915ms total)
T0FFC 3909:980 JLINK_ReadMemEx(0x40000440, 0x0004 Bytes, ..., Flags = 0x02000004) -- CPU_ReadMem(4 bytes @ 0x40000440) - Data: 00 00 00 00  returns 0x04 (0001ms, 1916ms total)
T0FFC 3909:981 JLINK_ReadMemEx(0x40000448, 0x0004 Bytes, ..., Flags = 0x02000004) -- CPU_ReadMem(4 bytes @ 0x40000448) - Data: 00 00 00 00  returns 0x04 (0000ms, 1916ms total)
T0FFC 3909:981 JLINK_ReadMemEx(0x4000044C, 0x0004 Bytes, ..., Flags = 0x02000004) -- CPU_ReadMem(4 bytes @ 0x4000044C) - Data: 00 00 00 00  returns 0x04 (0001ms, 1917ms total)
T3350 3909:982 JLINK_IsHalted()  returns FALSE (0001ms, 1918ms total)
T3350 3910:085 JLINK_IsHalted()  returns FALSE (0000ms, 1917ms total)
T3350 3910:186 JLINK_IsHalted()  returns FALSE (0000ms, 1917ms total)
T3350 3910:287 JLINK_IsHalted()  returns FALSE (0000ms, 1917ms total)
T3350 3910:388 JLINK_IsHalted()  returns FALSE (0000ms, 1917ms total)
T0FFC 3910:494 JLINK_ReadMemEx(0x40000400, 0x0010 Bytes, ..., Flags = 0x02000004) -- CPU_ReadMem(16 bytes @ 0x40000400) - Data: 00 00 00 00 00 00 00 00 00 00 00 00 00 00 00 00  returns 0x10 (0001ms, 1918ms total)
T0FFC 3910:495 JLINK_ReadMemEx(0x40000410, 0x0004 Bytes, ..., Flags = 0x02000004) -- CPU_ReadMem(4 bytes @ 0x40000410) - Data: 00 00 00 00  returns 0x04 (0000ms, 1918ms total)
T0FFC 3910:495 JLINK_ReadMemEx(0x40000418, 0x0014 Bytes, ..., Flags = 0x02000004) -- CPU_ReadMem(20 bytes @ 0x40000418) - Data: 00 00 00 00 00 00 00 00 00 00 00 00 00 00 00 00 ...  returns 0x14 (0001ms, 1919ms total)
T0FFC 3910:496 JLINK_ReadMemEx(0x4000042C, 0x0004 Bytes, ..., Flags = 0x02000004) -- CPU_ReadMem(4 bytes @ 0x4000042C) - Data: 00 00 00 00  returns 0x04 (0000ms, 1919ms total)
T0FFC 3910:496 JLINK_ReadMemEx(0x40000434, 0x000C Bytes, ..., Flags = 0x02000004) -- CPU_ReadMem(12 bytes @ 0x40000434) - Data: 00 00 00 00 00 00 00 00 00 00 00 00  returns 0x0C (0000ms, 1919ms total)
T0FFC 3910:496 JLINK_ReadMemEx(0x40000440, 0x0004 Bytes, ..., Flags = 0x02000004) -- CPU_ReadMem(4 bytes @ 0x40000440) - Data: 00 00 00 00  returns 0x04 (0001ms, 1920ms total)
T0FFC 3910:497 JLINK_ReadMemEx(0x40000448, 0x0004 Bytes, ..., Flags = 0x02000004) -- CPU_ReadMem(4 bytes @ 0x40000448) - Data: 00 00 00 00  returns 0x04 (0000ms, 1920ms total)
T0FFC 3910:497 JLINK_ReadMemEx(0x4000044C, 0x0004 Bytes, ..., Flags = 0x02000004) -- CPU_ReadMem(4 bytes @ 0x4000044C) - Data: 00 00 00 00  returns 0x04 (0000ms, 1920ms total)
T3350 3910:498 JLINK_IsHalted()  returns FALSE (0000ms, 1920ms total)
T3350 3910:600 JLINK_IsHalted()  returns FALSE (0000ms, 1920ms total)
T3350 3910:701 JLINK_IsHalted()  returns FALSE (0000ms, 1920ms total)
T3350 3910:802 JLINK_IsHalted()  returns FALSE (0000ms, 1920ms total)
T3350 3910:904 JLINK_IsHalted()  returns TRUE (0001ms, 1921ms total)
T3350 3910:905 JLINK_Halt()  returns 0x00 (0000ms, 1920ms total)
T3350 3910:905 JLINK_IsHalted()  returns TRUE (0001ms, 1921ms total)
T3350 3910:906 JLINK_IsHalted()  returns TRUE (0000ms, 1920ms total)
T3350 3910:906 JLINK_IsHalted()  returns TRUE (0000ms, 1920ms total)
T3350 3910:906 JLINK_ReadReg(R15 (PC))  returns 0x0800968C (0000ms, 1920ms total)
T3350 3910:906 JLINK_ReadReg(XPSR)  returns 0x01000000 (0000ms, 1920ms total)
T3350 3910:906 JLINK_ClrBPEx(BPHandle = 0x00000001)  returns 0x00 (0000ms, 1920ms total)
T3350 3910:906 JLINK_ReadMemU32(0xE000ED30, 0x0001 Items, ...) -- CPU_ReadMem(4 bytes @ 0xE000ED30) - Data: 02 00 00 00  returns 0x01 (0000ms, 1920ms total)
T3350 3910:906 JLINK_ReadMemU32(0xE0001028, 0x0001 Items, ...) -- CPU_ReadMem(4 bytes @ 0xE0001028) - Data: 00 00 00 00  returns 0x01 (0001ms, 1921ms total)
T3350 3910:907 JLINK_ReadMemU32(0xE0001038, 0x0001 Items, ...) -- CPU_ReadMem(4 bytes @ 0xE0001038) - Data: 00 00 00 00  returns 0x01 (0000ms, 1921ms total)
T3350 3910:907 JLINK_ReadReg(R0)  returns 0x20001280 (0000ms, 1921ms total)
T3350 3910:907 JLINK_ReadReg(R1)  returns 0x20001280 (0000ms, 1921ms total)
T3350 3910:907 JLINK_ReadReg(R2)  returns 0x20001280 (0000ms, 1921ms total)
T3350 3910:907 JLINK_ReadReg(R3)  returns 0x20001280 (0000ms, 1921ms total)
T3350 3910:907 JLINK_ReadReg(R4)  returns 0x0800A098 (0000ms, 1921ms total)
T3350 3910:907 JLINK_ReadReg(R5)  returns 0x20001220 (0000ms, 1921ms total)
T3350 3910:907 JLINK_ReadReg(R6)  returns 0x00000000 (0000ms, 1921ms total)
T3350 3910:907 JLINK_ReadReg(R7)  returns 0x00000000 (0000ms, 1921ms total)
T3350 3910:907 JLINK_ReadReg(R8)  returns 0xFFFFFFFF (0000ms, 1921ms total)
T3350 3910:907 JLINK_ReadReg(R9)  returns 0xFFFFFFFF (0000ms, 1921ms total)
T3350 3910:907 JLINK_ReadReg(R10)  returns 0x0800A098 (0000ms, 1921ms total)
T3350 3910:908 JLINK_ReadReg(R11)  returns 0x0800A098 (0000ms, 1922ms total)
T3350 3910:908 JLINK_ReadReg(R12)  returns 0x00000000 (0000ms, 1922ms total)
T3350 3910:908 JLINK_ReadReg(R13 (SP))  returns 0x20001680 (0000ms, 1922ms total)
T3350 3910:908 JLINK_ReadReg(R14)  returns 0x08003153 (0000ms, 1922ms total)
T3350 3910:908 JLINK_ReadReg(R15 (PC))  returns 0x0800968C (0000ms, 1922ms total)
T3350 3910:908 JLINK_ReadReg(XPSR)  returns 0x01000000 (0000ms, 1922ms total)
T3350 3910:908 JLINK_ReadReg(MSP)  returns 0x20001680 (0000ms, 1922ms total)
T3350 3910:908 JLINK_ReadReg(PSP)  returns 0xFFFFFFFC (0000ms, 1922ms total)
T3350 3910:908 JLINK_ReadReg(CFBP)  returns 0x00000000 (0000ms, 1922ms total)
T0FFC 3910:908 JLINK_ReadMemEx(0x20001674, 0x0004 Bytes, ..., Flags = 0x02000000) -- CPU_ReadMem(64 bytes @ 0x20001640) -- Updating C cache (64 bytes @ 0x20001640) -- Read from C cache (4 bytes @ 0x20001674) - Data: 80 12 00 20  returns 0x04 (0001ms, 1923ms total)
T0FFC 3910:909 JLINK_ReadMemEx(0x2000166C, 0x0004 Bytes, ..., Flags = 0x02000000) -- Read from C cache (4 bytes @ 0x2000166C) - Data: 80 12 00 20  returns 0x04 (0000ms, 1923ms total)
T0FFC 3910:909 JLINK_ReadMemEx(0x20001668, 0x0004 Bytes, ..., Flags = 0x02000000) -- Read from C cache (4 bytes @ 0x20001668) - Data: 80 12 00 20  returns 0x04 (0000ms, 1923ms total)
T0FFC 3910:909 JLINK_ReadMemEx(0x00000000, 0x0004 Bytes, ..., Flags = 0x02000000) -- CPU_ReadMem(4 bytes @ 0x00000004) -- CPU_ReadMem(64 bytes @ 0x08000000) -- Updating C cache (64 bytes @ 0x08000000) -- Read from C cache (4 bytes @ 0x08000000) - Data: D0 12 00 20  returns 0x04 (0001ms, 1924ms total)
T0FFC 3910:946 JLINK_ReadMemEx(0x40000400, 0x0010 Bytes, ..., Flags = 0x02000004) -- CPU_ReadMem(16 bytes @ 0x40000400) - Data: 00 00 00 00 00 00 00 00 00 00 00 00 00 00 00 00  returns 0x10 (0001ms, 1926ms total)
T0FFC 3910:947 JLINK_ReadMemEx(0x40000410, 0x0004 Bytes, ..., Flags = 0x02000004) -- CPU_ReadMem(4 bytes @ 0x40000410) - Data: 00 00 00 00  returns 0x04 (0001ms, 1927ms total)
T0FFC 3910:948 JLINK_ReadMemEx(0x40000418, 0x0014 Bytes, ..., Flags = 0x02000004) -- CPU_ReadMem(20 bytes @ 0x40000418) - Data: 00 00 00 00 00 00 00 00 00 00 00 00 00 00 00 00 ...  returns 0x14 (0000ms, 1927ms total)
T0FFC 3910:948 JLINK_ReadMemEx(0x4000042C, 0x0004 Bytes, ..., Flags = 0x02000004) -- CPU_ReadMem(4 bytes @ 0x4000042C) - Data: 00 00 00 00  returns 0x04 (0001ms, 1928ms total)
T0FFC 3910:949 JLINK_ReadMemEx(0x40000434, 0x000C Bytes, ..., Flags = 0x02000004) -- CPU_ReadMem(12 bytes @ 0x40000434) - Data: 00 00 00 00 00 00 00 00 00 00 00 00  returns 0x0C (0000ms, 1928ms total)
T0FFC 3910:949 JLINK_ReadMemEx(0x40000440, 0x0004 Bytes, ..., Flags = 0x02000004) -- CPU_ReadMem(4 bytes @ 0x40000440) - Data: 00 00 00 00  returns 0x04 (0000ms, 1928ms total)
T0FFC 3910:949 JLINK_ReadMemEx(0x40000448, 0x0004 Bytes, ..., Flags = 0x02000004) -- CPU_ReadMem(4 bytes @ 0x40000448) - Data: 00 00 00 00  returns 0x04 (0001ms, 1929ms total)
T0FFC 3910:950 JLINK_ReadMemEx(0x4000044C, 0x0004 Bytes, ..., Flags = 0x02000004) -- CPU_ReadMem(4 bytes @ 0x4000044C) - Data: 00 00 00 00  returns 0x04 (0000ms, 1929ms total)
T0FFC 3910:952 JLINK_ReadMemEx(0x0800968C, 0x003C Bytes, ..., Flags = 0x02000000) -- CPU_ReadMem(128 bytes @ 0x08009680) -- Updating C cache (128 bytes @ 0x08009680) -- Read from C cache (60 bytes @ 0x0800968C) - Data: 1F B5 C0 22 70 49 71 48 F9 F7 66 FD 70 48 01 68 ...  returns 0x3C (0001ms, 1930ms total)
T3350 3931:788 JLINK_ReadMemEx(0x0800968C, 0x0002 Bytes, ..., Flags = 0x02000000) -- Read from C cache (2 bytes @ 0x0800968C) - Data: 1F B5  returns 0x02 (0000ms, 1930ms total)
T3350 3931:788 JLINK_Go() -- CPU_ReadMem(4 bytes @ 0xE0001000) -- CPU_WriteMem(4 bytes @ 0xE0001000) -- CPU_WriteMem(4 bytes @ 0xE0002008) (0002ms, 1932ms total)
T3350 3931:890 JLINK_IsHalted()  returns FALSE (0000ms, 1932ms total)
T3350 3931:992 JLINK_IsHalted()  returns FALSE (0000ms, 1932ms total)
T3350 3932:093 JLINK_IsHalted()  returns FALSE (0000ms, 1932ms total)
T3350 3932:194 JLINK_IsHalted()  returns FALSE (0000ms, 1932ms total)
T0FFC 3932:300 JLINK_ReadMemEx(0x40000400, 0x0010 Bytes, ..., Flags = 0x02000004) -- CPU_ReadMem(16 bytes @ 0x40000400) - Data: 01 00 00 00 00 00 00 00 00 00 00 00 00 00 00 00  returns 0x10 (0000ms, 1932ms total)
T0FFC 3932:300 JLINK_ReadMemEx(0x40000410, 0x0004 Bytes, ..., Flags = 0x02000004) -- CPU_ReadMem(4 bytes @ 0x40000410) - Data: 1F 00 00 00  returns 0x04 (0001ms, 1933ms total)
T0FFC 3932:301 JLINK_ReadMemEx(0x40000418, 0x0014 Bytes, ..., Flags = 0x02000004) -- CPU_ReadMem(20 bytes @ 0x40000418) - Data: 00 68 00 00 00 00 00 00 10 00 00 00 00 00 00 00 ...  returns 0x14 (0000ms, 1933ms total)
T0FFC 3932:301 JLINK_ReadMemEx(0x4000042C, 0x0004 Bytes, ..., Flags = 0x02000004) -- CPU_ReadMem(4 bytes @ 0x4000042C) - Data: 02 00 00 00  returns 0x04 (0001ms, 1934ms total)
T0FFC 3932:302 JLINK_ReadMemEx(0x40000434, 0x000C Bytes, ..., Flags = 0x02000004) -- CPU_ReadMem(12 bytes @ 0x40000434) - Data: 00 00 00 00 01 00 00 00 00 00 00 00  returns 0x0C (0000ms, 1934ms total)
T0FFC 3932:302 JLINK_ReadMemEx(0x40000440, 0x0004 Bytes, ..., Flags = 0x02000004) -- CPU_ReadMem(4 bytes @ 0x40000440) - Data: 00 00 00 00  returns 0x04 (0000ms, 1934ms total)
T0FFC 3932:302 JLINK_ReadMemEx(0x40000448, 0x0004 Bytes, ..., Flags = 0x02000004) -- CPU_ReadMem(4 bytes @ 0x40000448) - Data: 00 00 00 00  returns 0x04 (0001ms, 1935ms total)
T0FFC 3932:303 JLINK_ReadMemEx(0x4000044C, 0x0004 Bytes, ..., Flags = 0x02000004) -- CPU_ReadMem(4 bytes @ 0x4000044C) - Data: 01 00 00 00  returns 0x04 (0000ms, 1935ms total)
T3350 3932:335 JLINK_IsHalted()  returns FALSE (0001ms, 1936ms total)
T3350 3932:437 JLINK_IsHalted()  returns FALSE (0000ms, 1935ms total)
T3350 3932:538 JLINK_IsHalted()  returns FALSE (0000ms, 1935ms total)
T3350 3932:639 JLINK_IsHalted()  returns FALSE (0000ms, 1935ms total)
T3350 3932:741 JLINK_IsHalted()  returns FALSE (0000ms, 1935ms total)
T0FFC 3932:847 JLINK_ReadMemEx(0x40000400, 0x0010 Bytes, ..., Flags = 0x02000004) -- CPU_ReadMem(16 bytes @ 0x40000400) - Data: 01 00 00 00 00 00 00 00 00 00 00 00 00 00 00 00  returns 0x10 (0000ms, 1935ms total)
T0FFC 3932:847 JLINK_ReadMemEx(0x40000410, 0x0004 Bytes, ..., Flags = 0x02000004) -- CPU_ReadMem(4 bytes @ 0x40000410) - Data: 1F 00 00 00  returns 0x04 (0001ms, 1936ms total)
T0FFC 3932:848 JLINK_ReadMemEx(0x40000418, 0x0014 Bytes, ..., Flags = 0x02000004) -- CPU_ReadMem(20 bytes @ 0x40000418) - Data: 00 68 00 00 00 00 00 00 10 00 00 00 01 00 00 00 ...  returns 0x14 (0000ms, 1936ms total)
T0FFC 3932:848 JLINK_ReadMemEx(0x4000042C, 0x0004 Bytes, ..., Flags = 0x02000004) -- CPU_ReadMem(4 bytes @ 0x4000042C) - Data: 02 00 00 00  returns 0x04 (0000ms, 1936ms total)
T0FFC 3932:848 JLINK_ReadMemEx(0x40000434, 0x000C Bytes, ..., Flags = 0x02000004) -- CPU_ReadMem(12 bytes @ 0x40000434) - Data: 00 00 00 00 01 00 00 00 00 00 00 00  returns 0x0C (0001ms, 1937ms total)
T0FFC 3932:849 JLINK_ReadMemEx(0x40000440, 0x0004 Bytes, ..., Flags = 0x02000004) -- CPU_ReadMem(4 bytes @ 0x40000440) - Data: 00 00 00 00  returns 0x04 (0000ms, 1937ms total)
T0FFC 3932:849 JLINK_ReadMemEx(0x40000448, 0x0004 Bytes, ..., Flags = 0x02000004) -- CPU_ReadMem(4 bytes @ 0x40000448) - Data: 00 00 00 00  returns 0x04 (0000ms, 1937ms total)
T0FFC 3932:849 JLINK_ReadMemEx(0x4000044C, 0x0004 Bytes, ..., Flags = 0x02000004) -- CPU_ReadMem(4 bytes @ 0x4000044C) - Data: 01 00 00 00  returns 0x04 (0001ms, 1938ms total)
T3350 3932:854 JLINK_IsHalted()  returns FALSE (0001ms, 1939ms total)
T3350 3932:956 JLINK_IsHalted()  returns FALSE (0000ms, 1938ms total)
T3350 3933:057 JLINK_IsHalted()  returns FALSE (0000ms, 1938ms total)
T3350 3933:158 JLINK_IsHalted()  returns FALSE (0000ms, 1938ms total)
T3350 3933:258 JLINK_IsHalted()  returns FALSE (0000ms, 1938ms total)
T0FFC 3933:363 JLINK_ReadMemEx(0x40000400, 0x0010 Bytes, ..., Flags = 0x02000004) -- CPU_ReadMem(16 bytes @ 0x40000400) - Data: 01 00 00 00 00 00 00 00 00 00 00 00 00 00 00 00  returns 0x10 (0001ms, 1939ms total)
T0FFC 3933:364 JLINK_ReadMemEx(0x40000410, 0x0004 Bytes, ..., Flags = 0x02000004) -- CPU_ReadMem(4 bytes @ 0x40000410) - Data: 1F 00 00 00  returns 0x04 (0000ms, 1939ms total)
T0FFC 3933:364 JLINK_ReadMemEx(0x40000418, 0x0014 Bytes, ..., Flags = 0x02000004) -- CPU_ReadMem(20 bytes @ 0x40000418) - Data: 00 68 00 00 00 00 00 00 10 00 00 00 60 00 00 00 ...  returns 0x14 (0000ms, 1939ms total)
T0FFC 3933:364 JLINK_ReadMemEx(0x4000042C, 0x0004 Bytes, ..., Flags = 0x02000004) -- CPU_ReadMem(4 bytes @ 0x4000042C) - Data: C5 1F 00 00  returns 0x04 (0001ms, 1940ms total)
T0FFC 3933:365 JLINK_ReadMemEx(0x40000434, 0x000C Bytes, ..., Flags = 0x02000004) -- CPU_ReadMem(12 bytes @ 0x40000434) - Data: 00 00 00 00 E2 0F 00 00 00 00 00 00  returns 0x0C (0000ms, 1940ms total)
T0FFC 3933:365 JLINK_ReadMemEx(0x40000440, 0x0004 Bytes, ..., Flags = 0x02000004) -- CPU_ReadMem(4 bytes @ 0x40000440) - Data: 00 00 00 00  returns 0x04 (0000ms, 1940ms total)
T0FFC 3933:365 JLINK_ReadMemEx(0x40000448, 0x0004 Bytes, ..., Flags = 0x02000004) -- CPU_ReadMem(4 bytes @ 0x40000448) - Data: 00 00 00 00  returns 0x04 (0001ms, 1941ms total)
T0FFC 3933:366 JLINK_ReadMemEx(0x4000044C, 0x0004 Bytes, ..., Flags = 0x02000004) -- CPU_ReadMem(4 bytes @ 0x4000044C) - Data: 01 00 00 00  returns 0x04 (0000ms, 1941ms total)
T3350 3933:380 JLINK_IsHalted()  returns FALSE (0001ms, 1942ms total)
T3350 3933:482 JLINK_IsHalted()  returns FALSE (0001ms, 1942ms total)
T3350 3933:583 JLINK_IsHalted()  returns FALSE (0001ms, 1942ms total)
T3350 3933:685 JLINK_IsHalted()  returns FALSE (0000ms, 1941ms total)
T3350 3933:785 JLINK_IsHalted()  returns FALSE (0000ms, 1941ms total)
T0FFC 3933:891 JLINK_ReadMemEx(0x40000400, 0x0010 Bytes, ..., Flags = 0x02000004) -- CPU_ReadMem(16 bytes @ 0x40000400) - Data: 01 00 00 00 00 00 00 00 00 00 00 00 00 00 00 00  returns 0x10 (0001ms, 1942ms total)
T0FFC 3933:892 JLINK_ReadMemEx(0x40000410, 0x0004 Bytes, ..., Flags = 0x02000004) -- CPU_ReadMem(4 bytes @ 0x40000410) - Data: 1F 00 00 00  returns 0x04 (0000ms, 1942ms total)
T0FFC 3933:892 JLINK_ReadMemEx(0x40000418, 0x0014 Bytes, ..., Flags = 0x02000004) -- CPU_ReadMem(20 bytes @ 0x40000418) - Data: 00 68 00 00 00 00 00 00 10 00 00 00 5B 0F 00 00 ...  returns 0x14 (0000ms, 1942ms total)
T0FFC 3933:892 JLINK_ReadMemEx(0x4000042C, 0x0004 Bytes, ..., Flags = 0x02000004) -- CPU_ReadMem(4 bytes @ 0x4000042C) - Data: C5 1F 00 00  returns 0x04 (0001ms, 1943ms total)
T0FFC 3933:893 JLINK_ReadMemEx(0x40000434, 0x000C Bytes, ..., Flags = 0x02000004) -- CPU_ReadMem(12 bytes @ 0x40000434) - Data: 00 00 00 00 E2 0F 00 00 00 00 00 00  returns 0x0C (0000ms, 1943ms total)
T0FFC 3933:893 JLINK_ReadMemEx(0x40000440, 0x0004 Bytes, ..., Flags = 0x02000004) -- CPU_ReadMem(4 bytes @ 0x40000440) - Data: 00 00 00 00  returns 0x04 (0000ms, 1943ms total)
T0FFC 3933:893 JLINK_ReadMemEx(0x40000448, 0x0004 Bytes, ..., Flags = 0x02000004) -- CPU_ReadMem(4 bytes @ 0x40000448) - Data: 00 00 00 00  returns 0x04 (0001ms, 1944ms total)
T0FFC 3933:894 JLINK_ReadMemEx(0x4000044C, 0x0004 Bytes, ..., Flags = 0x02000004) -- CPU_ReadMem(4 bytes @ 0x4000044C) - Data: 01 00 00 00  returns 0x04 (0000ms, 1944ms total)
T3350 3933:899 JLINK_IsHalted()  returns FALSE (0000ms, 1944ms total)
T3350 3934:000 JLINK_IsHalted()  returns FALSE (0000ms, 1944ms total)
T3350 3934:101 JLINK_IsHalted()  returns FALSE (0000ms, 1944ms total)
T3350 3934:202 JLINK_IsHalted()  returns FALSE (0000ms, 1944ms total)
T3350 3934:303 JLINK_IsHalted()  returns FALSE (0000ms, 1944ms total)
T0FFC 3934:407 JLINK_ReadMemEx(0x40000400, 0x0010 Bytes, ..., Flags = 0x02000004) -- CPU_ReadMem(16 bytes @ 0x40000400) - Data: 01 00 00 00 00 00 00 00 00 00 00 00 00 00 00 00  returns 0x10 (0000ms, 1944ms total)
T0FFC 3934:407 JLINK_ReadMemEx(0x40000410, 0x0004 Bytes, ..., Flags = 0x02000004) -- CPU_ReadMem(4 bytes @ 0x40000410) - Data: 1F 00 00 00  returns 0x04 (0001ms, 1945ms total)
T0FFC 3934:408 JLINK_ReadMemEx(0x40000418, 0x0014 Bytes, ..., Flags = 0x02000004) -- CPU_ReadMem(20 bytes @ 0x40000418) - Data: 00 68 00 00 00 00 00 00 10 00 00 00 6D 01 00 00 ...  returns 0x14 (0000ms, 1945ms total)
T0FFC 3934:408 JLINK_ReadMemEx(0x4000042C, 0x0004 Bytes, ..., Flags = 0x02000004) -- CPU_ReadMem(4 bytes @ 0x4000042C) - Data: C5 1F 00 00  returns 0x04 (0000ms, 1945ms total)
T0FFC 3934:408 JLINK_ReadMemEx(0x40000434, 0x000C Bytes, ..., Flags = 0x02000004) -- CPU_ReadMem(12 bytes @ 0x40000434) - Data: 00 00 00 00 E2 0F 00 00 00 00 00 00  returns 0x0C (0001ms, 1946ms total)
T0FFC 3934:409 JLINK_ReadMemEx(0x40000440, 0x0004 Bytes, ..., Flags = 0x02000004) -- CPU_ReadMem(4 bytes @ 0x40000440) - Data: 00 00 00 00  returns 0x04 (0000ms, 1946ms total)
T0FFC 3934:409 JLINK_ReadMemEx(0x40000448, 0x0004 Bytes, ..., Flags = 0x02000004) -- CPU_ReadMem(4 bytes @ 0x40000448) - Data: 00 00 00 00  returns 0x04 (0001ms, 1947ms total)
T0FFC 3934:410 JLINK_ReadMemEx(0x4000044C, 0x0004 Bytes, ..., Flags = 0x02000004) -- CPU_ReadMem(4 bytes @ 0x4000044C) - Data: 01 00 00 00  returns 0x04 (0000ms, 1947ms total)
T3350 3934:415 JLINK_IsHalted()  returns FALSE (0000ms, 1947ms total)
T3350 3934:516 JLINK_IsHalted()  returns FALSE (0000ms, 1947ms total)
T3350 3934:617 JLINK_IsHalted()  returns FALSE (0000ms, 1947ms total)
T3350 3934:718 JLINK_IsHalted()  returns FALSE (0000ms, 1947ms total)
T3350 3934:819 JLINK_IsHalted()  returns FALSE (0000ms, 1947ms total)
T0FFC 3934:927 JLINK_ReadMemEx(0x40000400, 0x0010 Bytes, ..., Flags = 0x02000004) -- CPU_ReadMem(16 bytes @ 0x40000400) - Data: 01 00 00 00 00 00 00 00 00 00 00 00 00 00 00 00  returns 0x10 (0000ms, 1947ms total)
T0FFC 3934:927 JLINK_ReadMemEx(0x40000410, 0x0004 Bytes, ..., Flags = 0x02000004) -- CPU_ReadMem(4 bytes @ 0x40000410) - Data: 1F 00 00 00  returns 0x04 (0001ms, 1948ms total)
T0FFC 3934:928 JLINK_ReadMemEx(0x40000418, 0x0014 Bytes, ..., Flags = 0x02000004) -- CPU_ReadMem(20 bytes @ 0x40000418) - Data: 00 68 00 00 00 00 00 00 10 00 00 00 52 1D 00 00 ...  returns 0x14 (0000ms, 1948ms total)
T0FFC 3934:928 JLINK_ReadMemEx(0x4000042C, 0x0004 Bytes, ..., Flags = 0x02000004) -- CPU_ReadMem(4 bytes @ 0x4000042C) - Data: C5 1F 00 00  returns 0x04 (0001ms, 1949ms total)
T0FFC 3934:929 JLINK_ReadMemEx(0x40000434, 0x000C Bytes, ..., Flags = 0x02000004) -- CPU_ReadMem(12 bytes @ 0x40000434) - Data: 00 00 00 00 E2 0F 00 00 00 00 00 00  returns 0x0C (0000ms, 1949ms total)
T0FFC 3934:929 JLINK_ReadMemEx(0x40000440, 0x0004 Bytes, ..., Flags = 0x02000004) -- CPU_ReadMem(4 bytes @ 0x40000440) - Data: 00 00 00 00  returns 0x04 (0001ms, 1950ms total)
T0FFC 3934:930 JLINK_ReadMemEx(0x40000448, 0x0004 Bytes, ..., Flags = 0x02000004) -- CPU_ReadMem(4 bytes @ 0x40000448) - Data: 00 00 00 00  returns 0x04 (0000ms, 1950ms total)
T0FFC 3934:930 JLINK_ReadMemEx(0x4000044C, 0x0004 Bytes, ..., Flags = 0x02000004) -- CPU_ReadMem(4 bytes @ 0x4000044C) - Data: 01 00 00 00  returns 0x04 (0000ms, 1950ms total)
T3350 3934:935 JLINK_IsHalted()  returns FALSE (0000ms, 1950ms total)
T3350 3935:036 JLINK_IsHalted()  returns FALSE (0000ms, 1950ms total)
T3350 3935:137 JLINK_IsHalted()  returns FALSE (0000ms, 1950ms total)
T3350 3935:238 JLINK_IsHalted()  returns FALSE (0000ms, 1950ms total)
T3350 3935:340 JLINK_IsHalted()  returns FALSE (0000ms, 1950ms total)
T0FFC 3935:454 JLINK_ReadMemEx(0x40000400, 0x0010 Bytes, ..., Flags = 0x02000004) -- CPU_ReadMem(16 bytes @ 0x40000400) - Data: 01 00 00 00 00 00 00 00 00 00 00 00 00 00 00 00  returns 0x10 (0000ms, 1950ms total)
T0FFC 3935:454 JLINK_ReadMemEx(0x40000410, 0x0004 Bytes, ..., Flags = 0x02000004) -- CPU_ReadMem(4 bytes @ 0x40000410) - Data: 1F 00 00 00  returns 0x04 (0001ms, 1951ms total)
T0FFC 3935:455 JLINK_ReadMemEx(0x40000418, 0x0014 Bytes, ..., Flags = 0x02000004) -- CPU_ReadMem(20 bytes @ 0x40000418) - Data: 00 68 00 00 00 00 00 00 10 00 00 00 24 0A 00 00 ...  returns 0x14 (0000ms, 1951ms total)
T0FFC 3935:455 JLINK_ReadMemEx(0x4000042C, 0x0004 Bytes, ..., Flags = 0x02000004) -- CPU_ReadMem(4 bytes @ 0x4000042C) - Data: C5 1F 00 00  returns 0x04 (0000ms, 1951ms total)
T0FFC 3935:455 JLINK_ReadMemEx(0x40000434, 0x000C Bytes, ..., Flags = 0x02000004) -- CPU_ReadMem(12 bytes @ 0x40000434) - Data: 00 00 00 00 E2 0F 00 00 00 00 00 00  returns 0x0C (0001ms, 1952ms total)
T0FFC 3935:456 JLINK_ReadMemEx(0x40000440, 0x0004 Bytes, ..., Flags = 0x02000004) -- CPU_ReadMem(4 bytes @ 0x40000440) - Data: 00 00 00 00  returns 0x04 (0000ms, 1952ms total)
T0FFC 3935:456 JLINK_ReadMemEx(0x40000448, 0x0004 Bytes, ..., Flags = 0x02000004) -- CPU_ReadMem(4 bytes @ 0x40000448) - Data: 00 00 00 00  returns 0x04 (0000ms, 1952ms total)
T0FFC 3935:456 JLINK_ReadMemEx(0x4000044C, 0x0004 Bytes, ..., Flags = 0x02000004) -- CPU_ReadMem(4 bytes @ 0x4000044C) - Data: 01 00 00 00  returns 0x04 (0001ms, 1953ms total)
T3350 3935:461 JLINK_IsHalted()  returns FALSE (0001ms, 1954ms total)
T3350 3935:563 JLINK_IsHalted()  returns FALSE (0000ms, 1953ms total)
T3350 3935:664 JLINK_IsHalted()  returns FALSE (0000ms, 1953ms total)
T3350 3935:764 JLINK_IsHalted()  returns FALSE (0000ms, 1953ms total)
T3350 3935:865 JLINK_IsHalted()  returns FALSE (0000ms, 1953ms total)
T0FFC 3935:987 JLINK_ReadMemEx(0x40000400, 0x0010 Bytes, ..., Flags = 0x02000004) -- CPU_ReadMem(16 bytes @ 0x40000400) - Data: 01 00 00 00 00 00 00 00 00 00 00 00 00 00 00 00  returns 0x10 (0000ms, 1953ms total)
T0FFC 3935:988 JLINK_ReadMemEx(0x40000410, 0x0004 Bytes, ..., Flags = 0x02000004) -- CPU_ReadMem(4 bytes @ 0x40000410) - Data: 1F 00 00 00  returns 0x04 (0000ms, 1954ms total)
T0FFC 3935:988 JLINK_ReadMemEx(0x40000418, 0x0014 Bytes, ..., Flags = 0x02000004) -- CPU_ReadMem(20 bytes @ 0x40000418) - Data: 00 68 00 00 00 00 00 00 10 00 00 00 9D 06 00 00 ...  returns 0x14 (0001ms, 1955ms total)
T0FFC 3935:989 JLINK_ReadMemEx(0x4000042C, 0x0004 Bytes, ..., Flags = 0x02000004) -- CPU_ReadMem(4 bytes @ 0x4000042C) - Data: C5 1F 00 00  returns 0x04 (0000ms, 1955ms total)
T0FFC 3935:989 JLINK_ReadMemEx(0x40000434, 0x000C Bytes, ..., Flags = 0x02000004) -- CPU_ReadMem(12 bytes @ 0x40000434) - Data: 00 00 00 00 E2 0F 00 00 00 00 00 00  returns 0x0C (0001ms, 1956ms total)
T0FFC 3935:990 JLINK_ReadMemEx(0x40000440, 0x0004 Bytes, ..., Flags = 0x02000004) -- CPU_ReadMem(4 bytes @ 0x40000440) - Data: 00 00 00 00  returns 0x04 (0001ms, 1957ms total)
T0FFC 3935:991 JLINK_ReadMemEx(0x40000448, 0x0004 Bytes, ..., Flags = 0x02000004) -- CPU_ReadMem(4 bytes @ 0x40000448) - Data: 00 00 00 00  returns 0x04 (0000ms, 1957ms total)
T0FFC 3935:991 JLINK_ReadMemEx(0x4000044C, 0x0004 Bytes, ..., Flags = 0x02000004) -- CPU_ReadMem(4 bytes @ 0x4000044C) - Data: 01 00 00 00  returns 0x04 (0001ms, 1958ms total)
T3350 3936:002 JLINK_IsHalted()  returns FALSE (0000ms, 1958ms total)
T3350 3936:104 JLINK_IsHalted()  returns FALSE (0000ms, 1958ms total)
T3350 3936:204 JLINK_IsHalted()  returns FALSE (0000ms, 1958ms total)
T3350 3936:305 JLINK_IsHalted()  returns FALSE (0000ms, 1958ms total)
T3350 3936:406 JLINK_IsHalted()  returns FALSE (0000ms, 1958ms total)
T0FFC 3936:510 JLINK_ReadMemEx(0x40000400, 0x0010 Bytes, ..., Flags = 0x02000004) -- CPU_ReadMem(16 bytes @ 0x40000400) - Data: 01 00 00 00 00 00 00 00 00 00 00 00 00 00 00 00  returns 0x10 (0000ms, 1958ms total)
T0FFC 3936:510 JLINK_ReadMemEx(0x40000410, 0x0004 Bytes, ..., Flags = 0x02000004) -- CPU_ReadMem(4 bytes @ 0x40000410) - Data: 1F 00 00 00  returns 0x04 (0001ms, 1959ms total)
T0FFC 3936:511 JLINK_ReadMemEx(0x40000418, 0x0014 Bytes, ..., Flags = 0x02000004) -- CPU_ReadMem(20 bytes @ 0x40000418) - Data: 00 68 00 00 00 00 00 00 10 00 00 00 75 18 00 00 ...  returns 0x14 (0000ms, 1959ms total)
T0FFC 3936:511 JLINK_ReadMemEx(0x4000042C, 0x0004 Bytes, ..., Flags = 0x02000004) -- CPU_ReadMem(4 bytes @ 0x4000042C) - Data: C5 1F 00 00  returns 0x04 (0001ms, 1960ms total)
T0FFC 3936:512 JLINK_ReadMemEx(0x40000434, 0x000C Bytes, ..., Flags = 0x02000004) -- CPU_ReadMem(12 bytes @ 0x40000434) - Data: 00 00 00 00 E2 0F 00 00 00 00 00 00  returns 0x0C (0000ms, 1960ms total)
T0FFC 3936:512 JLINK_ReadMemEx(0x40000440, 0x0004 Bytes, ..., Flags = 0x02000004) -- CPU_ReadMem(4 bytes @ 0x40000440) - Data: 00 00 00 00  returns 0x04 (0001ms, 1961ms total)
T0FFC 3936:513 JLINK_ReadMemEx(0x40000448, 0x0004 Bytes, ..., Flags = 0x02000004) -- CPU_ReadMem(4 bytes @ 0x40000448) - Data: 00 00 00 00  returns 0x04 (0000ms, 1961ms total)
T0FFC 3936:513 JLINK_ReadMemEx(0x4000044C, 0x0004 Bytes, ..., Flags = 0x02000004) -- CPU_ReadMem(4 bytes @ 0x4000044C) - Data: 01 00 00 00  returns 0x04 (0000ms, 1961ms total)
T3350 3936:519 JLINK_IsHalted()  returns FALSE (0001ms, 1962ms total)
T3350 3936:621 JLINK_IsHalted()  returns FALSE (0002ms, 1963ms total)
T3350 3936:724 JLINK_IsHalted()  returns FALSE (0000ms, 1961ms total)
T3350 3936:825 JLINK_IsHalted()  returns FALSE (0000ms, 1961ms total)
T3350 3936:926 JLINK_IsHalted()  returns FALSE (0000ms, 1961ms total)
T0FFC 3937:038 JLINK_ReadMemEx(0x40000400, 0x0010 Bytes, ..., Flags = 0x02000004) -- CPU_ReadMem(16 bytes @ 0x40000400) - Data: 01 00 00 00 00 00 00 00 00 00 00 00 00 00 00 00  returns 0x10 (0000ms, 1961ms total)
T0FFC 3937:038 JLINK_ReadMemEx(0x40000410, 0x0004 Bytes, ..., Flags = 0x02000004) -- CPU_ReadMem(4 bytes @ 0x40000410) - Data: 1F 00 00 00  returns 0x04 (0001ms, 1962ms total)
T0FFC 3937:039 JLINK_ReadMemEx(0x40000418, 0x0014 Bytes, ..., Flags = 0x02000004) -- CPU_ReadMem(20 bytes @ 0x40000418) - Data: 00 68 00 00 00 00 00 00 10 00 00 00 1C 14 00 00 ...  returns 0x14 (0000ms, 1962ms total)
T0FFC 3937:039 JLINK_ReadMemEx(0x4000042C, 0x0004 Bytes, ..., Flags = 0x02000004) -- CPU_ReadMem(4 bytes @ 0x4000042C) - Data: C5 1F 00 00  returns 0x04 (0001ms, 1963ms total)
T0FFC 3937:040 JLINK_ReadMemEx(0x40000434, 0x000C Bytes, ..., Flags = 0x02000004) -- CPU_ReadMem(12 bytes @ 0x40000434) - Data: 00 00 00 00 E2 0F 00 00 00 00 00 00  returns 0x0C (0000ms, 1963ms total)
T0FFC 3937:040 JLINK_ReadMemEx(0x40000440, 0x0004 Bytes, ..., Flags = 0x02000004) -- CPU_ReadMem(4 bytes @ 0x40000440) - Data: 00 00 00 00  returns 0x04 (0000ms, 1963ms total)
T0FFC 3937:040 JLINK_ReadMemEx(0x40000448, 0x0004 Bytes, ..., Flags = 0x02000004) -- CPU_ReadMem(4 bytes @ 0x40000448) - Data: 00 00 00 00  returns 0x04 (0001ms, 1964ms total)
T0FFC 3937:041 JLINK_ReadMemEx(0x4000044C, 0x0004 Bytes, ..., Flags = 0x02000004) -- CPU_ReadMem(4 bytes @ 0x4000044C) - Data: 01 00 00 00  returns 0x04 (0000ms, 1964ms total)
T3350 3937:047 JLINK_IsHalted()  returns FALSE (0000ms, 1964ms total)
T3350 3937:147 JLINK_IsHalted()  returns FALSE (0000ms, 1964ms total)
T3350 3937:248 JLINK_IsHalted()  returns FALSE (0000ms, 1964ms total)
T3350 3937:349 JLINK_IsHalted()  returns FALSE (0000ms, 1964ms total)
T3350 3937:450 JLINK_IsHalted()  returns FALSE (0000ms, 1964ms total)
T0FFC 3937:554 JLINK_ReadMemEx(0x40000400, 0x0010 Bytes, ..., Flags = 0x02000004) -- CPU_ReadMem(16 bytes @ 0x40000400) - Data: 01 00 00 00 00 00 00 00 00 00 00 00 00 00 00 00  returns 0x10 (0001ms, 1965ms total)
T0FFC 3937:555 JLINK_ReadMemEx(0x40000410, 0x0004 Bytes, ..., Flags = 0x02000004) -- CPU_ReadMem(4 bytes @ 0x40000410) - Data: 1F 00 00 00  returns 0x04 (0000ms, 1965ms total)
T0FFC 3937:555 JLINK_ReadMemEx(0x40000418, 0x0014 Bytes, ..., Flags = 0x02000004) -- CPU_ReadMem(20 bytes @ 0x40000418) - Data: 00 68 00 00 00 00 00 00 10 00 00 00 9B 0A 00 00 ...  returns 0x14 (0001ms, 1966ms total)
T0FFC 3937:556 JLINK_ReadMemEx(0x4000042C, 0x0004 Bytes, ..., Flags = 0x02000004) -- CPU_ReadMem(4 bytes @ 0x4000042C) - Data: C5 1F 00 00  returns 0x04 (0000ms, 1966ms total)
T0FFC 3937:556 JLINK_ReadMemEx(0x40000434, 0x000C Bytes, ..., Flags = 0x02000004) -- CPU_ReadMem(12 bytes @ 0x40000434) - Data: 00 00 00 00 E2 0F 00 00 00 00 00 00  returns 0x0C (0001ms, 1967ms total)
T0FFC 3937:557 JLINK_ReadMemEx(0x40000440, 0x0004 Bytes, ..., Flags = 0x02000004) -- CPU_ReadMem(4 bytes @ 0x40000440) - Data: 00 00 00 00  returns 0x04 (0000ms, 1967ms total)
T0FFC 3937:557 JLINK_ReadMemEx(0x40000448, 0x0004 Bytes, ..., Flags = 0x02000004) -- CPU_ReadMem(4 bytes @ 0x40000448) - Data: 00 00 00 00  returns 0x04 (0001ms, 1968ms total)
T0FFC 3937:558 JLINK_ReadMemEx(0x4000044C, 0x0004 Bytes, ..., Flags = 0x02000004) -- CPU_ReadMem(4 bytes @ 0x4000044C) - Data: 01 00 00 00  returns 0x04 (0000ms, 1968ms total)
T3350 3937:563 JLINK_IsHalted()  returns FALSE (0000ms, 1968ms total)
T3350 3937:664 JLINK_IsHalted()  returns FALSE (0000ms, 1968ms total)
T3350 3937:765 JLINK_IsHalted()  returns FALSE (0000ms, 1968ms total)
T3350 3937:866 JLINK_IsHalted()  returns FALSE (0000ms, 1968ms total)
T3350 3937:967 JLINK_IsHalted()  returns FALSE (0000ms, 1968ms total)
T0FFC 3938:072 JLINK_ReadMemEx(0x40000400, 0x0010 Bytes, ..., Flags = 0x02000004) -- CPU_ReadMem(16 bytes @ 0x40000400) - Data: 01 00 00 00 00 00 00 00 00 00 00 00 00 00 00 00  returns 0x10 (0000ms, 1968ms total)
T0FFC 3938:072 JLINK_ReadMemEx(0x40000410, 0x0004 Bytes, ..., Flags = 0x02000004) -- CPU_ReadMem(4 bytes @ 0x40000410) - Data: 1F 00 00 00  returns 0x04 (0000ms, 1968ms total)
T0FFC 3938:072 JLINK_ReadMemEx(0x40000418, 0x0014 Bytes, ..., Flags = 0x02000004) -- CPU_ReadMem(20 bytes @ 0x40000418) - Data: 00 68 00 00 00 00 00 00 10 00 00 00 13 0F 00 00 ...  returns 0x14 (0001ms, 1969ms total)
T0FFC 3938:073 JLINK_ReadMemEx(0x4000042C, 0x0004 Bytes, ..., Flags = 0x02000004) -- CPU_ReadMem(4 bytes @ 0x4000042C) - Data: C5 1F 00 00  returns 0x04 (0000ms, 1969ms total)
T0FFC 3938:073 JLINK_ReadMemEx(0x40000434, 0x000C Bytes, ..., Flags = 0x02000004) -- CPU_ReadMem(12 bytes @ 0x40000434) - Data: 00 00 00 00 E2 0F 00 00 00 00 00 00  returns 0x0C (0001ms, 1970ms total)
T0FFC 3938:074 JLINK_ReadMemEx(0x40000440, 0x0004 Bytes, ..., Flags = 0x02000004) -- CPU_ReadMem(4 bytes @ 0x40000440) - Data: 00 00 00 00  returns 0x04 (0000ms, 1970ms total)
T0FFC 3938:074 JLINK_ReadMemEx(0x40000448, 0x0004 Bytes, ..., Flags = 0x02000004) -- CPU_ReadMem(4 bytes @ 0x40000448) - Data: 00 00 00 00  returns 0x04 (0000ms, 1970ms total)
T0FFC 3938:074 JLINK_ReadMemEx(0x4000044C, 0x0004 Bytes, ..., Flags = 0x02000004) -- CPU_ReadMem(4 bytes @ 0x4000044C) - Data: 01 00 00 00  returns 0x04 (0001ms, 1971ms total)
T3350 3938:079 JLINK_IsHalted()  returns FALSE (0001ms, 1972ms total)
T3350 3938:180 JLINK_IsHalted()  returns FALSE (0000ms, 1971ms total)
T3350 3938:282 JLINK_IsHalted()  returns FALSE (0000ms, 1971ms total)
T3350 3938:383 JLINK_IsHalted()  returns FALSE (0000ms, 1971ms total)
T3350 3938:484 JLINK_IsHalted()  returns FALSE (0000ms, 1971ms total)
T0FFC 3938:602 JLINK_ReadMemEx(0x40000400, 0x0010 Bytes, ..., Flags = 0x02000004) -- CPU_ReadMem(16 bytes @ 0x40000400) - Data: 01 00 00 00 00 00 00 00 00 00 00 00 00 00 00 00  returns 0x10 (0001ms, 1972ms total)
T0FFC 3938:603 JLINK_ReadMemEx(0x40000410, 0x0004 Bytes, ..., Flags = 0x02000004) -- CPU_ReadMem(4 bytes @ 0x40000410) - Data: 1F 00 00 00  returns 0x04 (0000ms, 1972ms total)
T0FFC 3938:603 JLINK_ReadMemEx(0x40000418, 0x0014 Bytes, ..., Flags = 0x02000004) -- CPU_ReadMem(20 bytes @ 0x40000418) - Data: 00 68 00 00 00 00 00 00 10 00 00 00 5A 00 00 00 ...  returns 0x14 (0001ms, 1973ms total)
T0FFC 3938:604 JLINK_ReadMemEx(0x4000042C, 0x0004 Bytes, ..., Flags = 0x02000004) -- CPU_ReadMem(4 bytes @ 0x4000042C) - Data: C5 1F 00 00  returns 0x04 (0000ms, 1973ms total)
T0FFC 3938:604 JLINK_ReadMemEx(0x40000434, 0x000C Bytes, ..., Flags = 0x02000004) -- CPU_ReadMem(12 bytes @ 0x40000434) - Data: 00 00 00 00 E2 0F 00 00 00 00 00 00  returns 0x0C (0001ms, 1974ms total)
T0FFC 3938:605 JLINK_ReadMemEx(0x40000440, 0x0004 Bytes, ..., Flags = 0x02000004) -- CPU_ReadMem(4 bytes @ 0x40000440) - Data: 00 00 00 00  returns 0x04 (0000ms, 1974ms total)
T0FFC 3938:606 JLINK_ReadMemEx(0x40000448, 0x0004 Bytes, ..., Flags = 0x02000004) -- CPU_ReadMem(4 bytes @ 0x40000448) - Data: 00 00 00 00  returns 0x04 (0000ms, 1974ms total)
T0FFC 3938:606 JLINK_ReadMemEx(0x4000044C, 0x0004 Bytes, ..., Flags = 0x02000004) -- CPU_ReadMem(4 bytes @ 0x4000044C) - Data: 01 00 00 00  returns 0x04 (0000ms, 1974ms total)
